Circuit: * D:\INGEÑERIA\Circuitos Electronicos II\resoluciones\tp2\Draft1.asc

Warning: Multiple definitions of model "2scr375p" Type: BJT
Warning: Multiple definitions of model "bc857b" Type: BJT
Warning: Multiple definitions of model "bc847c" Type: BJT
Warning: Multiple definitions of model "bc847b" Type: BJT
Direct Newton iteration for .op point succeeded.
Semiconductor Device Operating Points:
                        --- Diodes ---
Name:      d1
Model:  bzx84c10l
Id:     -5.17e-18
Vd:     -2.23e-10
Req:     4.31e+07
CAP:     1.50e-10

                        --- Bipolar Transistors ---
Name:       q1
Model:      npn
Ib:      -1.00e-12
Ic:      -1.00e-16
Vbe:     -1.00e+00
Vbc:      2.20e-10
Vce:     -1.00e+00
BetaDC:   1.00e-04
Gm:      -3.87e-15
Rpi:      1.00e+12
Rx:       0.00e+00
Ro:       2.59e+14
Cbe:      0.00e+00
Cbc:      0.00e+00
Cjs:      0.00e+00
BetaAC:  -3.87e-03
Cbx:      0.00e+00
Ft:       0.00e+00



Date: Mon Sep  9 20:47:44 2024
Total elapsed time: 0.038 seconds.

tnom = 27
temp = 27
method = trap
totiter = 7
traniter = 0
tranpoints = 0
accept = 0
rejected = 0
matrix size = 5
fillins = 0
solver = Normal
Avg thread counts: 6.0/0.0/6.0/6.0
Matrix Compiler1: 186 bytes object code size
Matrix Compiler2: 355 bytes object code size
